T2C04 000:008.534   SEGGER J-Link V7.96h Log File
T2C04 000:008.766   DLL Compiled: May 15 2024 15:33:59
T2C04 000:008.877   Logging started @ 2024-11-06 01:23
T2C04 000:008.953   Process: C:\Keil_v5\UV4\UV4.exe
T2C04 000:009.024 - 9.021ms
T2C04 000:009.114 JLINK_SetWarnOutHandler(...)
T2C04 000:009.193 - 0.079ms
T2C04 000:009.287 JLINK_OpenEx(...)
T2C04 000:012.388   Firmware: J-Link OB-RA4M2 compiled Sep 13 2023 14:47:46
T2C04 000:013.467   Firmware: J-Link OB-RA4M2 compiled Sep 13 2023 14:47:46
T2C04 000:044.572   Hardware: V1.00
T2C04 000:044.729   S/N: 1087905080
T2C04 000:044.859   OEM: SEGGER
T2C04 000:044.987   Feature(s): None
T2C04 000:045.775   Bootloader: 2021 May 14
T2C04 000:046.397   USB speed mode: Full speed (12 MBit/s)
T2C04 000:046.877   TELNET listener socket opened on port 19021
T2C04 000:047.097   WEBSRV WEBSRV_Init(): Starting webserver thread(s)
T2C04 000:047.299   WEBSRV Webserver running on local port 19080
T2C04 000:047.472   Looking for J-Link GUI Server exe at: C:\Keil_v5\ARM\Segger\JLinkGUIServer.exe
T2C04 000:047.615   Looking for J-Link GUI Server exe at: C:\Program Files\SEGGER\JLink\JLinkGUIServer.exe
T2C04 000:047.724   Forking J-Link GUI Server: C:\Program Files\SEGGER\JLink\JLinkGUIServer.exe
T2C04 000:060.076   J-Link GUI Server info: "J-Link GUI server V7.94k "
T2C04 000:061.917 - 52.624ms returns "O.K."
T2C04 000:062.088 JLINK_GetEmuCaps()
T2C04 000:062.190 - 0.100ms returns 0xB8EA5A33
T2C04 000:062.339 JLINK_TIF_GetAvailable(...)
T2C04 000:062.680 - 0.342ms
T2C04 000:062.786 JLINK_SetErrorOutHandler(...)
T2C04 000:062.926 - 0.139ms
T2C04 000:063.085 JLINK_ExecCommand("ProjectFile = "Y:\Work\git\CPKHMI_MIPI\JLinkSettings.ini"", ...). 
T2C04 000:075.234   Ref file found at: C:\Keil_v5\ARM\Segger\JLinkDevices.ref
T2C04 000:075.541   REF file references invalid XML file: C:\Program Files\SEGGER\JLink\JLinkDevices.xml
T2C04 000:076.859 - 13.774ms returns 0x00
T2C04 000:077.037 JLINK_ExecCommand("Device = R7FA8D1BH", ...). 
T2C04 000:077.983   Flash bank @ 0x00000000: SFL: Parsing sectorization info from ELF file
T2C04 000:078.155     FlashDevice.SectorInfo[0]: .SectorSize = 0x00000010, .SectorStartAddr = 0x00000000
T2C04 000:078.295   FlashBank @0x0300A100: Sectorization info from SFL ELF file ignored because sectorization override from DLL / XML file is active.
T2C04 000:078.433   Flash bank @ 0x00000000: SFL: Parsing sectorization info from ELF file
T2C04 000:078.534     FlashDevice.SectorInfo[0]: .SectorSize = 0x00000010, .SectorStartAddr = 0x00000000
T2C04 000:078.633   FlashBank @0x1300A180: Sectorization info from SFL ELF file ignored because sectorization override from DLL / XML file is active.
T2C04 000:078.742   Flash bank @ 0x00000000: SFL: Parsing sectorization info from ELF file
T2C04 000:078.860     FlashDevice.SectorInfo[0]: .SectorSize = 0x00000010, .SectorStartAddr = 0x00000000
T2C04 000:079.000   FlashBank @0x27030080: Sectorization info from SFL ELF file ignored because sectorization override from DLL / XML file is active.
T2C04 000:079.134   Flash bank @ 0x02000000: SFL: Parsing sectorization info from ELF file
T2C04 000:079.254     FlashDevice.SectorInfo[0]: .SectorSize = 0x00002000, .SectorStartAddr = 0x00000000
T2C04 000:079.374     FlashDevice.SectorInfo[1]: .SectorSize = 0x00008000, .SectorStartAddr = 0x00010000
T2C04 000:079.493   FlashBank @0x02000000: Sectorization info from SFL ELF file ignored because sectorization override from DLL / XML file is active.
T2C04 000:079.852   Flash bank @ 0x02000000: SFL: Parsing sectorization info from ELF file
T2C04 000:080.037     FlashDevice.SectorInfo[0]: .SectorSize = 0x00002000, .SectorStartAddr = 0x00000000
T2C04 000:080.160     FlashDevice.SectorInfo[1]: .SectorSize = 0x00008000, .SectorStartAddr = 0x00010000
T2C04 000:080.278   FlashBank @0x12000000: Sectorization info from SFL ELF file ignored because sectorization override from DLL / XML file is active.
T2C04 000:080.594   Flash bank @ 0x27000000: SFL: Parsing sectorization info from ELF file
T2C04 000:080.738     FlashDevice.SectorInfo[0]: .SectorSize = 0x00000040, .SectorStartAddr = 0x00000000
T2C04 000:080.857   FlashBank @0x27000000: Sectorization info from SFL ELF file ignored because sectorization override from DLL / XML file is active.
T2C04 000:080.989   Flash bank @ 0x27000000: SFL: Parsing sectorization info from ELF file
T2C04 000:081.108     FlashDevice.SectorInfo[0]: .SectorSize = 0x00000040, .SectorStartAddr = 0x00000000
T2C04 000:081.232   FlashBank @0x37000000: Sectorization info from SFL ELF file ignored because sectorization override from DLL / XML file is active.
T2C04 000:081.398   Flash bank @ 0x80000000: SFL: Parsing sectorization info from ELF file
T2C04 000:081.516     FlashDevice.SectorInfo[0]: .SectorSize = 0x00010000, .SectorStartAddr = 0x00000000
T2C04 000:094.698   Flash bank @ 0x90000000: SFL: Parsing sectorization info from ELF file
T2C04 000:094.949     FlashDevice.SectorInfo[0]: .SectorSize = 0x00010000, .SectorStartAddr = 0x00000000
T2C04 000:107.200   Device "R7FA8D1BH" selected.
T2C04 000:107.708 - 30.571ms returns 0x00
T2C04 000:107.818 JLINK_ExecCommand("DisableConnectionTimeout", ...). 
T2C04 000:107.904 - 0.003ms returns 0x01
T2C04 000:108.428 JLINK_GetHardwareVersion()
T2C04 000:108.513 - 0.084ms returns 10000
T2C04 000:108.607 JLINK_GetDLLVersion()
T2C04 000:108.678 - 0.070ms returns 79608
T2C04 000:108.762 JLINK_GetOEMString(...)
T2C04 000:108.859 JLINK_GetFirmwareString(...)
T2C04 000:108.924 - 0.065ms
T2C04 000:109.031 JLINK_GetDLLVersion()
T2C04 000:109.101 - 0.070ms returns 79608
T2C04 000:109.176 JLINK_GetCompileDateTime()
T2C04 000:109.241 - 0.064ms
T2C04 000:109.381 JLINK_GetFirmwareString(...)
T2C04 000:109.448 - 0.067ms
T2C04 000:109.527 JLINK_GetHardwareVersion()
T2C04 000:109.593 - 0.065ms returns 10000
T2C04 000:109.703 JLINK_GetSN()
T2C04 000:109.774 - 0.070ms returns 1087905080
T2C04 000:109.853 JLINK_GetOEMString(...)
T2C04 000:109.949 JLINK_TIF_Select(JLINKARM_TIF_SWD)
T2C04 000:110.866 - 0.917ms returns 0x00
T2C04 000:110.965 JLINK_HasError()
T2C04 000:111.065 JLINK_SetSpeed(5000)
T2C04 000:111.312 - 0.247ms
T2C04 000:111.432 JLINK_GetId()
T2C04 000:114.683   ConfigTargetSettings() start
T2C04 000:114.895    J-Link Script File: Executing ConfigTargetSettings()
T2C04 000:115.055   ConfigTargetSettings() end - Took 150us
T2C04 000:115.194   InitTarget() start
T2C04 000:115.313    J-Link Script File: Executing InitTarget()
T2C04 000:115.408   Identifying target device...
T2C04 000:115.553   SWD selected. Executing JTAG -> SWD switching sequence...
T2C04 000:116.487   Initializing DAP...
T2C04 000:117.475   DAP initialized successfully.
T2C04 000:117.579   Determining TrustZone configuration...
T2C04 000:118.758     Secure Debug: Enabled (SSD)
T2C04 000:118.871   Determining currently configured transfer type by reading the AHB-AP CSW register.
T2C04 000:119.745     --> Correct transfer type configured. Done.
T2C04 000:119.878   InitTarget() end - Took 4.55ms
T2C04 000:120.628   Found SW-DP with ID 0x6BA02477
T2C04 000:124.707   DPIDR: 0x6BA02477
T2C04 000:124.835   CoreSight SoC-400 or earlier
T2C04 000:124.948   Scanning AP map to find all available APs
T2C04 000:126.000   AP[2]: Stopped AP scan as end of AP map has been reached
T2C04 000:126.135   AP[0]: AHB-AP (IDR: 0x84770001)
T2C04 000:126.262   AP[1]: APB-AP (IDR: 0x54770002)
T2C04 000:126.389   Iterating through AP map to find AHB-AP to use
T2C04 000:127.351   AP[0]: Core found
T2C04 000:127.464   AP[0]: AHB-AP ROM base: 0xE00FE000
T2C04 000:128.012   CPUID register: 0x410FD232. Implementer code: 0x41 (ARM)
T2C04 000:128.146   Feature set: Mainline
T2C04 000:128.660   Cache: L1 I/D-cache present
T2C04 000:128.767   Found Cortex-M85 r0p2, Little endian.
T2C04 000:129.300   -- Max. mem block: 0x0001D7F0
T2C04 000:130.037   Cortex-M: The connected J-Link (S/N 1087905080) uses an old firmware module: V1 (current is 2)
T2C04 000:130.175   
  ***** Warning: 
T2C04 000:130.302   Cortex-M (ARMv8-M and later): The connected J-Link (S/N 1087905080) uses an old firmware module that does not handle I/D-cache correctly. Proper debugging functionality cannot be guaranteed if cache is enabled
T2C04 000:130.431   CPU_ReadMem(4 bytes @ 0xE000EDF0)
T2C04 000:130.908   CPU_WriteMem(4 bytes @ 0xE000EDF0)
T2C04 000:131.387   CPU_ReadMem(4 bytes @ 0xE0002000)
T2C04 000:131.843   FPUnit: 8 code (BP) slots and 0 literal slots
T2C04 000:131.943   CPU_ReadMem(4 bytes @ 0xE000EDFC)
T2C04 000:132.365   CPU_WriteMem(4 bytes @ 0xE000EDFC)
T2C04 000:132.799   CPU_ReadMem(4 bytes @ 0xE0001000)
T2C04 000:133.254   CPU_ReadMem(4 bytes @ 0xE0001000)
T2C04 000:133.724   CPU_ReadMem(4 bytes @ 0xE0001028)
T2C04 000:134.195   CPU_ReadMem(4 bytes @ 0xE0001038)
T2C04 000:134.660   CPU_ReadMem(4 bytes @ 0xE0001048)
T2C04 000:135.146   CPU_ReadMem(4 bytes @ 0xE0001058)
T2C04 000:135.593   CPU_ReadMem(4 bytes @ 0xE0001068)
T2C04 000:136.020   CPU_ReadMem(4 bytes @ 0xE0001078)
T2C04 000:136.486   CPU_ReadMem(4 bytes @ 0xE0001088)
T2C04 000:136.976   CPU_ReadMem(4 bytes @ 0xE0001098)
T2C04 000:137.367   CPU_WriteMem(4 bytes @ 0xE0001000)
T2C04 000:137.789   CPU_ReadMem(4 bytes @ 0xE000ED88)
T2C04 000:138.256   CPU_WriteMem(4 bytes @ 0xE000ED88)
T2C04 000:138.695   CPU_ReadMem(4 bytes @ 0xE000ED88)
T2C04 000:139.128   CPU_WriteMem(4 bytes @ 0xE000ED88)
T2C04 000:139.536   CPU_ReadMem(4 bytes @ 0xE000EFB8)
T2C04 000:139.968   Security extension: implemented
T2C04 000:140.076   Secure debug: enabled
T2C04 000:140.179   CoreSight components:
T2C04 000:140.287   ROMTbl[0] @ E00FE000
T2C04 000:140.386   CPU_ReadMem(64 bytes @ 0xE00FE000)
T2C04 000:141.154   CPU_ReadMem(32 bytes @ 0xE00FFFE0)
T2C04 000:141.748   [0][0]: E00FF000 CID B105100D PID 000BB4D4 ROM Table
T2C04 000:141.905   ROMTbl[1] @ E00FF000
T2C04 000:142.028   CPU_ReadMem(64 bytes @ 0xE00FF000)
T2C04 000:142.836   CPU_ReadMem(32 bytes @ 0xE000EFE0)
T2C04 000:143.448   CPU_ReadMem(4 bytes @ 0xE000EFBC)
T2C04 000:143.879   CPU_ReadMem(4 bytes @ 0xE000EFCC)
T2C04 000:144.327   [1][0]: E000E000 CID B105900D PID 000BBD23 DEVARCH 47702A04 DEVTYPE 00 ???
T2C04 000:144.451   CPU_ReadMem(32 bytes @ 0xE0001FE0)
T2C04 000:145.059   CPU_ReadMem(4 bytes @ 0xE0001FBC)
T2C04 000:145.486   CPU_ReadMem(4 bytes @ 0xE0001FCC)
T2C04 000:145.980   [1][1]: E0001000 CID B105900D PID 000BBD23 DEVARCH 47711A02 DEVTYPE 00 DWT
T2C04 000:146.100   CPU_ReadMem(32 bytes @ 0xE0002FE0)
T2C04 000:146.692   CPU_ReadMem(4 bytes @ 0xE0002FBC)
T2C04 000:147.134   CPU_ReadMem(4 bytes @ 0xE0002FCC)
T2C04 000:147.557   [1][2]: E0002000 CID B105900D PID 000BBD23 DEVARCH 47701A03 DEVTYPE 00 FPB
T2C04 000:147.658   CPU_ReadMem(32 bytes @ 0xE0000FE0)
T2C04 000:148.302   CPU_ReadMem(4 bytes @ 0xE0000FBC)
T2C04 000:148.726   CPU_ReadMem(4 bytes @ 0xE0000FCC)
T2C04 000:149.168   [1][3]: E0000000 CID B105900D PID 000BBD23 DEVARCH 47701A01 DEVTYPE 43 ITM
T2C04 000:149.283   CPU_ReadMem(32 bytes @ 0xE0041FE0)
T2C04 000:149.864   CPU_ReadMem(4 bytes @ 0xE0041FBC)
T2C04 000:150.284   CPU_ReadMem(4 bytes @ 0xE0041FCC)
T2C04 000:150.728   [1][5]: E0041000 CID B105900D PID 002BBD23 DEVARCH 47754A13 DEVTYPE 13 ETM
T2C04 000:150.848   CPU_ReadMem(32 bytes @ 0xE0003FE0)
T2C04 000:151.457   CPU_ReadMem(4 bytes @ 0xE0003FBC)
T2C04 000:151.880   CPU_ReadMem(4 bytes @ 0xE0003FCC)
T2C04 000:152.322   [1][6]: E0003000 CID B105900D PID 000BBD23 DEVARCH 47700A06 DEVTYPE 16 ???
T2C04 000:152.442   CPU_ReadMem(32 bytes @ 0xE0042FE0)
T2C04 000:153.034   CPU_ReadMem(4 bytes @ 0xE0042FBC)
T2C04 000:153.469   CPU_ReadMem(4 bytes @ 0xE0042FCC)
T2C04 000:153.983   [1][7]: E0042000 CID B105900D PID 000BBD23 DEVARCH 47701A14 DEVTYPE 14 CSS600-CTI
T2C04 000:154.103   CPU_ReadMem(32 bytes @ 0xE0040FE0)
T2C04 000:154.700   CPU_ReadMem(4 bytes @ 0xE0040FBC)
T2C04 000:155.134   CPU_ReadMem(4 bytes @ 0xE0040FCC)
T2C04 000:155.565   [0][1]: E0040000 CID B105900D PID 000BBD23 DEVARCH 00000000 DEVTYPE 11 TPIU
T2C04 000:155.664   CPU_WriteMem(4 bytes @ 0xE000ED84)
T2C04 000:156.151   CPU_ReadMem(4 bytes @ 0xE000ED80)
T2C04 000:156.613   I-Cache L1: 16 KB, 256 Sets, 32 Bytes/Line, 2-Way
T2C04 000:156.737   CPU_WriteMem(4 bytes @ 0xE000ED84)
T2C04 000:157.147   CPU_ReadMem(4 bytes @ 0xE000ED80)
T2C04 000:157.570   D-Cache L1: 16 KB, 128 Sets, 32 Bytes/Line, 4-Way
T2C04 000:157.969 - 46.536ms returns 0x6BA02477
T2C04 000:158.346 JLINK_GetDLLVersion()
T2C04 000:158.439 - 0.092ms returns 79608
T2C04 000:158.531 JLINK_CORE_GetFound()
T2C04 000:158.611 - 0.079ms returns 0xE0500FF
T2C04 000:158.706 JLINK_GetDebugInfo(0x100 = JLINKARM_ROM_TABLE_ADDR_INDEX)
T2C04 000:158.774   Value=0xE00FE000
T2C04 000:158.871 - 0.165ms returns 0
T2C04 000:158.995 JLINK_GetDebugInfo(0x100 = JLINKARM_ROM_TABLE_ADDR_INDEX)
T2C04 000:159.063   Value=0xE00FE000
T2C04 000:159.161 - 0.166ms returns 0
T2C04 000:159.229 JLINK_GetDebugInfo(0x101 = JLINKARM_DEBUG_INFO_ETM_ADDR_INDEX)
T2C04 000:159.296   Value=0xE0041000
T2C04 000:159.396 - 0.166ms returns 0
T2C04 000:159.492 JLINK_ReadMemEx(0xE0041FD0, 0x20 Bytes, Flags = 0x02000004)
T2C04 000:159.577   CPU_ReadMem(32 bytes @ 0xE0041FD0)
T2C04 000:160.169   Data:  04 00 00 00 00 00 00 00 00 00 00 00 00 00 00 00 ...
T2C04 000:160.268 - 0.775ms returns 32 (0x20)
T2C04 000:160.358 JLINK_GetDebugInfo(0x102 = JLINKARM_DEBUG_INFO_MTB_ADDR_INDEX)
T2C04 000:160.424   Value=0x00000000
T2C04 000:160.520 - 0.162ms returns 0
T2C04 000:160.591 JLINK_GetDebugInfo(0x103 = JLINKARM_DEBUG_INFO_TPIU_ADDR_INDEX)
T2C04 000:160.657   Value=0xE0040000
T2C04 000:160.797 - 0.205ms returns 0
T2C04 000:160.892 JLINK_GetDebugInfo(0x104 = JLINKARM_DEBUG_INFO_ITM_ADDR_INDEX)
T2C04 000:160.973   Value=0xE0000000
T2C04 000:161.093 - 0.201ms returns 0
T2C04 000:161.177 JLINK_GetDebugInfo(0x105 = JLINKARM_DEBUG_INFO_DWT_ADDR_INDEX)
T2C04 000:161.256   Value=0xE0001000
T2C04 000:161.373 - 0.196ms returns 0
T2C04 000:161.457 JLINK_GetDebugInfo(0x106 = JLINKARM_DEBUG_INFO_FPB_ADDR_INDEX)
T2C04 000:161.537   Value=0xE0002000
T2C04 000:161.654 - 0.196ms returns 0
T2C04 000:161.737 JLINK_GetDebugInfo(0x107 = JLINKARM_DEBUG_INFO_NVIC_ADDR_INDEX)
T2C04 000:161.820   Value=0xE000E000
T2C04 000:161.937 - 0.199ms returns 0
T2C04 000:162.021 JLINK_GetDebugInfo(0x10C = JLINKARM_DEBUG_INFO_DBG_ADDR_INDEX)
T2C04 000:162.099   Value=0xE000EDF0
T2C04 000:162.228 - 0.206ms returns 0
T2C04 000:162.326 JLINK_GetDebugInfo(0x01 = Unknown)
T2C04 000:162.404   Value=0x00000001
T2C04 000:162.528 - 0.202ms returns 0
T2C04 000:162.622 JLINK_ReadMemU32(0xE000ED00, 0x1 Items)
T2C04 000:162.705   CPU_ReadMem(4 bytes @ 0xE000ED00)
T2C04 000:163.135   Data:  32 D2 0F 41
T2C04 000:163.254   Debug reg: CPUID
T2C04 000:163.366 - 0.744ms returns 1 (0x1)
T2C04 000:163.476 JLINK_GetDebugInfo(0x10F = JLINKARM_DEBUG_INFO_HAS_CORTEX_M_SECURITY_EXT_INDEX)
T2C04 000:163.555   Value=0x00000001
T2C04 000:163.673 - 0.196ms returns 0
T2C04 000:163.772 JLINK_ReadMemU32(0xE000EFB8, 0x1 Items)
T2C04 000:163.855   CPU_ReadMem(4 bytes @ 0xE000EFB8)
T2C04 000:164.278   Data:  FF 00 FF 00
T2C04 000:164.396 - 0.624ms returns 1 (0x1)
T2C04 000:164.480 JLINK_ReadMemU32(0xE000EDF0, 0x1 Items)
T2C04 000:164.562   CPU_ReadMem(4 bytes @ 0xE000EDF0)
T2C04 000:164.987   Data:  01 00 19 00
T2C04 000:165.105   Debug reg: DHCSR
T2C04 000:165.224 - 0.743ms returns 1 (0x1)
T2C04 000:165.337 JLINK_ReadMemU32(0xE000EE08, 0x1 Items)
T2C04 000:165.420   CPU_ReadMem(4 bytes @ 0xE000EE08)
T2C04 000:165.843   Data:  00 00 03 00
T2C04 000:165.975   Debug reg: DSCSR
T2C04 000:166.107 - 0.770ms returns 1 (0x1)
T2C04 000:166.208 JLINK_ReadMemEx(0xE000ED74, 0x4 Bytes, Flags = 0x02000004)
T2C04 000:166.292   CPU_ReadMem(4 bytes @ 0xE000ED74)
T2C04 000:166.723   Data:  00 00 40 00
T2C04 000:166.834 - 0.626ms returns 4 (0x4)
T2C04 000:166.942 JLINK_HasError()
T2C04 000:167.024 JLINK_SetResetType(JLINKARM_CM3_RESET_TYPE_NORMAL)
T2C04 000:167.088 - 0.064ms returns JLINKARM_CM3_RESET_TYPE_NORMAL
T2C04 000:167.162 JLINK_Reset()
T2C04 000:167.240   CPU is running
T2C04 000:167.338   CPU_WriteMem(4 bytes @ 0xE000EDF0)
T2C04 000:167.745   CPU_ReadMem(4 bytes @ 0xE000ED44)
T2C04 000:168.174   CPU_ReadMem(4 bytes @ 0xE000EE08)
T2C04 000:168.607   CPU is running
T2C04 000:168.731   CPU_WriteMem(4 bytes @ 0xE000EE08)
T2C04 000:169.187   CPU_ReadMem(4 bytes @ 0xE000EE08)
T2C04 000:169.652   Reset: ARMv8M core with Security Extension enabled detected. Switch to secure domain.
T2C04 000:169.757   CPU is running
T2C04 000:169.855   CPU_WriteMem(4 bytes @ 0xE000EDFC)
T2C04 000:170.276   Reset: Halt core after reset via DEMCR.VC_CORERESET.
T2C04 000:170.798   Reset: Reset device via AIRCR.SYSRESETREQ.
T2C04 000:170.900   CPU is running
T2C04 000:170.997   CPU_WriteMem(4 bytes @ 0xE000ED0C)
T2C04 000:225.013   CPU_ReadMem(4 bytes @ 0xE000EDF0)
T2C04 000:225.578   CPU_ReadMem(4 bytes @ 0xE000EDF0)
T2C04 000:229.741   CPU_WriteMem(4 bytes @ 0xE000EDFC)
T2C04 000:236.056   CPU_ReadMem(4 bytes @ 0xE000EDF0)
T2C04 000:240.189   CPU_ReadMem(4 bytes @ 0xE000EE08)
T2C04 000:240.662   CPU_WriteMem(4 bytes @ 0xE0002000)
T2C04 000:241.179   CPU_ReadMem(4 bytes @ 0xE000EDFC)
T2C04 000:241.662   CPU_ReadMem(4 bytes @ 0xE0001000)
T2C04 000:242.171   CPU_ReadMem(4 bytes @ 0xE000EE08)
T2C04 000:242.626 - 75.462ms
T2C04 000:243.069 JLINK_HasError()
T2C04 000:243.216 JLINK_ReadReg(R15 (PC))
T2C04 000:243.321   CPU_ReadMem(4 bytes @ 0xE000EE08)
T2C04 000:243.794 - 0.580ms returns 0x020039F0
T2C04 000:243.903 JLINK_ReadReg(XPSR)
T2C04 000:244.001 - 0.097ms returns 0x01000000
T2C04 000:244.130 JLINK_Halt()
T2C04 000:244.220 - 0.089ms returns 0x00
T2C04 000:244.336 JLINK_ReadMemU32(0xE000EFB8, 0x1 Items)
T2C04 000:244.437   CPU_ReadMem(4 bytes @ 0xE000EFB8)
T2C04 000:244.909   Data:  FF 00 FF 00
T2C04 000:245.048 - 0.711ms returns 1 (0x1)
T2C04 000:245.143 JLINK_ReadMemU32(0xE000EDF0, 0x1 Items)
T2C04 000:245.238   CPU_ReadMem(4 bytes @ 0xE000EDF0)
T2C04 000:245.706   Data:  03 00 13 00
T2C04 000:245.844   Debug reg: DHCSR
T2C04 000:245.983 - 0.840ms returns 1 (0x1)
T2C04 000:246.089 JLINK_ReadMemU32(0xE000EDF0, 0x1 Items)
T2C04 000:246.185   CPU_ReadMem(4 bytes @ 0xE000EDF0)
T2C04 000:246.674   Data:  03 00 13 00
T2C04 000:246.812   Debug reg: DHCSR
T2C04 000:246.950 - 0.861ms returns 1 (0x1)
T2C04 000:247.060 JLINK_WriteU32_64(0xE000EDF0, 0xA05F0003)
T2C04 000:247.152   Debug reg: DHCSR
T2C04 000:247.606   CPU_WriteMem(4 bytes @ 0xE000EDF0)
T2C04 000:248.178 - 1.118ms returns 0 (0x00000000)
T2C04 000:248.278 JLINK_WriteU32_64(0xE000EDFC, 0x01000000)
T2C04 000:248.365   Debug reg: DEMCR
T2C04 000:248.502   CPU_WriteMem(4 bytes @ 0xE000EDFC)
T2C04 000:248.986 - 0.707ms returns 0 (0x00000000)
T2C04 000:249.184 JLINK_GetHWStatus(...)
T2C04 000:249.482 - 0.297ms returns 0
T2C04 000:249.605 JLINK_GetNumBPUnits(Type = 0xFFFFFF00)
T2C04 000:249.673 - 0.068ms returns 0x08
T2C04 000:249.749 JLINK_GetNumBPUnits(Type = 0xF0)
T2C04 000:249.821 - 0.071ms returns 0x2000
T2C04 000:249.900 JLINK_GetNumWPUnits()
T2C04 000:249.976 - 0.076ms returns 8
T2C04 000:250.075 JLINK_GetSpeed()
T2C04 000:250.146 - 0.070ms returns 4000
T2C04 000:250.244 JLINK_ReadMemU32(0xE000E004, 0x1 Items)
T2C04 000:250.322   CPU_ReadMem(4 bytes @ 0xE000E004)
T2C04 000:250.745   Data:  02 00 00 00
T2C04 000:250.855 - 0.610ms returns 1 (0x1)
T2C04 000:250.946 JLINK_ReadMemU32(0xE000E004, 0x1 Items)
T2C04 000:251.020   CPU_ReadMem(4 bytes @ 0xE000E004)
T2C04 000:251.449   Data:  02 00 00 00
T2C04 000:251.574 - 0.627ms returns 1 (0x1)
T2C04 000:251.687 JLINK_WriteMemEx(0xE0001000, 0x0000001C Bytes, Flags = 0x02000004)
T2C04 000:251.776   Data:  01 00 00 00 00 00 00 00 00 00 00 00 00 00 00 00 ...
T2C04 000:251.924   CPU_WriteMem(28 bytes @ 0xE0001000)
T2C04 000:252.552 - 0.864ms returns 0x1C
T2C04 000:252.653 JLINK_ReadMemU32(0xE000EFB8, 0x1 Items)
T2C04 000:252.731   CPU_ReadMem(4 bytes @ 0xE000EFB8)
T2C04 000:253.155   Data:  FF 00 FF 00
T2C04 000:253.277 - 0.623ms returns 1 (0x1)
T2C04 000:253.373 JLINK_ReadMemU32(0xE000EDF0, 0x1 Items)
T2C04 000:253.468   CPU_ReadMem(4 bytes @ 0xE000EDF0)
T2C04 000:253.986   Data:  03 00 13 00
T2C04 000:254.114   Debug reg: DHCSR
T2C04 000:254.241 - 0.868ms returns 1 (0x1)
T2C04 000:254.336 JLINK_HasError()
T2C04 000:254.425 JLINK_ReadReg(R15 (PC))
T2C04 000:254.513 - 0.088ms returns 0x020039F0
T2C04 000:254.600 JLINK_ReadReg(XPSR)
T2C04 000:254.683 - 0.083ms returns 0x01000000
T2C04 000:255.137 JLINK_ReadMemU32(0xE000EE08, 0x1 Items)
T2C04 000:255.288   Data:  00 00 03 00
T2C04 000:255.409   Debug reg: DSCSR
T2C04 000:255.537 - 0.400ms returns 1 (0x1)
T2C04 000:255.628 JLINK_ReadMemU32(0xE000EFB8, 0x1 Items)
T2C04 000:255.716   CPU_ReadMem(4 bytes @ 0xE000EFB8)
T2C04 000:256.168   Data:  FF 00 FF 00
T2C04 000:256.299 - 0.670ms returns 1 (0x1)
T2C04 000:256.386 JLINK_ReadMemU32(0xE000EDF0, 0x1 Items)
T2C04 000:256.475   CPU_ReadMem(4 bytes @ 0xE000EDF0)
T2C04 000:256.995   Data:  03 00 13 00
T2C04 000:257.123   Debug reg: DHCSR
T2C04 000:257.252 - 0.865ms returns 1 (0x1)
T2C04 000:257.420 JLINK_ReadMemU32(0xE000EE08, 0x1 Items)
T2C04 000:257.510   Data:  00 00 03 00
T2C04 000:257.638   Debug reg: DSCSR
T2C04 000:257.766 - 0.345ms returns 1 (0x1)
T2C04 000:257.846 JLINK_ReadMemU32(0xE000EFB8, 0x1 Items)
T2C04 000:257.931   CPU_ReadMem(4 bytes @ 0xE000EFB8)
T2C04 000:258.377   Data:  FF 00 FF 00
T2C04 000:258.506 - 0.660ms returns 1 (0x1)
T2C04 000:258.593 JLINK_ReadMemU32(0xE000EDF0, 0x1 Items)
T2C04 000:258.680   CPU_ReadMem(4 bytes @ 0xE000EDF0)
T2C04 000:259.152   Data:  03 00 13 00
T2C04 000:259.273   Debug reg: DHCSR
T2C04 000:259.387 - 0.793ms returns 1 (0x1)
T2C04 000:259.460 JLINK_ReadMemU32(0xE000EE08, 0x1 Items)
T2C04 000:259.530   Data:  00 00 03 00
T2C04 000:259.631   Debug reg: DSCSR
T2C04 000:259.732 - 0.271ms returns 1 (0x1)
T2C04 000:259.803 JLINK_ReadMemU32(0xE000EFB8, 0x1 Items)
T2C04 000:259.872   CPU_ReadMem(4 bytes @ 0xE000EFB8)
T2C04 000:260.290   Data:  FF 00 FF 00
T2C04 000:260.395 - 0.591ms returns 1 (0x1)
T2C04 000:260.457 JLINK_ReadMemU32(0xE000EDF0, 0x1 Items)
T2C04 000:260.525   CPU_ReadMem(4 bytes @ 0xE000EDF0)
T2C04 000:260.975   Data:  03 00 13 00
T2C04 000:261.085   Debug reg: DHCSR
T2C04 000:261.185 - 0.727ms returns 1 (0x1)
T2C04 000:261.258 JLINK_ReadMemU32(0xE000EE08, 0x1 Items)
T2C04 000:261.331   Data:  00 00 03 00
T2C04 000:261.449   Debug reg: DSCSR
T2C04 000:261.575 - 0.316ms returns 1 (0x1)
T2C04 000:261.662 JLINK_ReadMemU32(0xE000EFB8, 0x1 Items)
T2C04 000:261.747   CPU_ReadMem(4 bytes @ 0xE000EFB8)
T2C04 000:262.188   Data:  FF 00 FF 00
T2C04 000:262.288 - 0.626ms returns 1 (0x1)
T2C04 000:262.361 JLINK_ReadMemU32(0xE000EDF0, 0x1 Items)
T2C04 000:262.430   CPU_ReadMem(4 bytes @ 0xE000EDF0)
T2C04 000:262.843   Data:  03 00 13 00
T2C04 000:262.943   Debug reg: DHCSR
T2C04 000:263.044 - 0.682ms returns 1 (0x1)
T2C04 000:263.115 JLINK_ReadMemU32(0xE000EE08, 0x1 Items)
T2C04 000:263.189   Data:  00 00 03 00
T2C04 000:263.288   Debug reg: DSCSR
T2C04 000:263.386 - 0.271ms returns 1 (0x1)
T2C04 000:263.454 JLINK_ReadMemU32(0xE000EFB8, 0x1 Items)
T2C04 000:263.522   CPU_ReadMem(4 bytes @ 0xE000EFB8)
T2C04 000:263.968   Data:  FF 00 FF 00
T2C04 000:264.069 - 0.615ms returns 1 (0x1)
T2C04 000:264.138 JLINK_ReadMemU32(0xE000EDF0, 0x1 Items)
T2C04 000:264.216   CPU_ReadMem(4 bytes @ 0xE000EDF0)
T2C04 000:264.666   Data:  03 00 13 00
T2C04 000:264.789   Debug reg: DHCSR
T2C04 000:264.915 - 0.776ms returns 1 (0x1)
T2C04 000:264.998 JLINK_ReadMemU32(0xE000EE08, 0x1 Items)
T2C04 000:265.085   Data:  00 00 03 00
T2C04 000:265.207   Debug reg: DSCSR
T2C04 000:265.333 - 0.335ms returns 1 (0x1)
T2C04 000:265.418 JLINK_ReadMemU32(0xE000EFB8, 0x1 Items)
T2C04 000:265.504   CPU_ReadMem(4 bytes @ 0xE000EFB8)
T2C04 000:265.973   Data:  FF 00 FF 00
T2C04 000:266.096 - 0.677ms returns 1 (0x1)
T2C04 000:266.181 JLINK_ReadMemU32(0xE000EDF0, 0x1 Items)
T2C04 000:266.256   CPU_ReadMem(4 bytes @ 0xE000EDF0)
T2C04 000:266.662   Data:  03 00 13 00
T2C04 000:266.770   Debug reg: DHCSR
T2C04 000:266.870 - 0.689ms returns 1 (0x1)
T2C04 000:266.939 JLINK_ReadMemU32(0xE000EE08, 0x1 Items)
T2C04 000:267.008   Data:  00 00 03 00
T2C04 000:267.104   Debug reg: DSCSR
T2C04 000:267.213 - 0.273ms returns 1 (0x1)
T2C04 000:267.298 JLINK_ReadMemU32(0xE000EFB8, 0x1 Items)
T2C04 000:267.383   CPU_ReadMem(4 bytes @ 0xE000EFB8)
T2C04 000:267.817   Data:  FF 00 FF 00
T2C04 000:267.948 - 0.649ms returns 1 (0x1)
T2C04 000:268.037 JLINK_ReadMemU32(0xE000EDF0, 0x1 Items)
T2C04 000:268.120   CPU_ReadMem(4 bytes @ 0xE000EDF0)
T2C04 000:268.553   Data:  03 00 13 00
T2C04 000:268.674   Debug reg: DHCSR
T2C04 000:268.787 - 0.749ms returns 1 (0x1)
T2C04 000:268.875 JLINK_ReadMemU32(0xE000EE08, 0x1 Items)
T2C04 000:268.971   Data:  00 00 03 00
T2C04 000:269.091   Debug reg: DSCSR
T2C04 000:269.211 - 0.335ms returns 1 (0x1)
T2C04 000:269.301 JLINK_ReadMemU32(0xE000EFB8, 0x1 Items)
T2C04 000:269.379   CPU_ReadMem(4 bytes @ 0xE000EFB8)
T2C04 000:269.810   Data:  FF 00 FF 00
T2C04 000:269.944 - 0.642ms returns 1 (0x1)
T2C04 000:270.038 JLINK_ReadMemU32(0xE000EDF0, 0x1 Items)
